
T2B28 000:000 SEGGER J-Link V4.90 Log File (0001ms, 0001ms total)
T2B28 000:000 DLL Compiled: Jul 28 2014 10:35:20 (0001ms, 0001ms total)
T2B28 000:000 Logging started @ 2018-12-05 13:29 (0001ms, 0001ms total)
T2B28 000:001 JLINK_SetWarnOutHandler(...) (0000ms, 0001ms total)
T2B28 000:001 JLINK_OpenEx(...)
Firmware: J-Link V9 compiled Jun  2 2222 22:22:22
Hardware: V9.40
S/N: 59401308
Feature(s): GDB, RDI, FlashBP, FlashDL, JFlash, RDDI  returns O.K. (0265ms, 0266ms total)
T2B28 000:266 JLINK_GetEmuCaps()  returns 0xB9FF7BBF (0000ms, 0266ms total)
T2B28 000:266 JLINK_TIF_GetAvailable(...) (0000ms, 0266ms total)
T2B28 000:266 JLINK_SetErrorOutHandler(...) (0000ms, 0266ms total)
T2B28 000:266 JLINK_ExecCommand("ProjectFile = "E:\project\mobile_platform_balance\MDK-ARM\JLinkSettings.ini"", ...)Device "STM32F407ZE" selected (512 KB flash, 128 KB RAM).  returns 0x00 (0001ms, 0267ms total)
T2B28 000:267 JLINK_ExecCommand("Device = STM32F407ZETx", ...)Device "STM32F407ZE" selected (512 KB flash, 128 KB RAM).  returns 0x00 (0001ms, 0268ms total)
T2B28 000:268 JLINK_ExecCommand("DisableConnectionTimeout", ...)  returns 0x01 (0000ms, 0268ms total)
T2B28 000:268 JLINK_GetHardwareVersion()  returns 0x16F30 (0000ms, 0268ms total)
T2B28 000:268 JLINK_GetDLLVersion()  returns 49000 (0000ms, 0268ms total)
T2B28 000:268 JLINK_GetFirmwareString(...) (0000ms, 0268ms total)
T2B28 000:268 JLINK_GetDLLVersion()  returns 49000 (0000ms, 0268ms total)
T2B28 000:268 JLINK_GetCompileDateTime() (0000ms, 0268ms total)
T2B28 000:268 JLINK_GetFirmwareString(...) (0000ms, 0268ms total)
T2B28 000:268 JLINK_GetHardwareVersion()  returns 0x16F30 (0000ms, 0268ms total)
T2B28 000:268 JLINK_TIF_Select(JLINKARM_TIF_JTAG)  returns 0x00 (0001ms, 0269ms total)
T2B28 000:269 JLINK_SetSpeed(5000) (0000ms, 0269ms total)
T2B28 000:269 JLINK_GetIdData(...) >0x2F8 JTAG>TotalIRLen = 9, IRPrint = 0x0011 >0x30 JTAG> >0x210 JTAG> >0x40 JTAG> >0x40 JTAG> >0x40 JTAG> >0x30 JTAG> >0x40 JTAG> >0x40 JTAG> >0x40 JTAG> >0x40 JTAG> >0x40 JTAG> >0x40 JTAG> >0x40 JTAG> >0x40 JTAG> >0x40 JTAG> >0x40 JTAG> >0x40 JTAG> >0x2F8 JTAG>TotalIRLen = 9, IRPrint = 0x0011 >0x30 JTAG> >0x210 JTAG> >0x70 JTAG> >0x40 JTAG> >0x40 JTAG> >0x40 JTAG> >0x50 JTAG> >0x80 JTAG> >0x40 JTAG> >0x30 JTAG> >0x40 JTAG> >0x40 JTAG> >0x30 JTAG> >0x40 JTAG>
 >0x50 JTAG>Found Cortex-M4 r0p1, Little endian. -- CPU_WriteMem(4 bytes @ 0xE0002000) -- CPU_ReadMem(4 bytes @ 0xE000EDF0) -- CPU_ReadMem(4 bytes @ 0xE0002000)FPUnit: 6 code (BP) slots and 2 literal slots -- CPU_ReadMem(4 bytes @ 0xE000EDFC) -- CPU_ReadMem(4 bytes @ 0xE0001000) -- CPU_WriteMem(4 bytes @ 0xE0001000) -- CPU_ReadMem(4 bytes @ 0xE00FF010)TPIU fitted. -- CPU_ReadMem(4 bytes @ 0xE00FF014)ETM fitted. -- CPU_ReadMem(4 bytes @ 0xE00FF018) ScanLen=9 NumDevices=2 aId[0]=0x4BA00477 aIrRead[0]=0
 aScanLen[0]=0 aScanRead[0]=0 (0015ms, 0284ms total)
T2B28 000:284 JLINK_JTAG_GetDeviceID(DeviceIndex = 0)  returns 0x4BA00477 (0000ms, 0284ms total)
T2B28 000:284 JLINK_JTAG_GetDeviceInfo(DeviceIndex = 0)  returns 0x00 (0000ms, 0284ms total)
T2B28 000:284 JLINK_JTAG_GetDeviceID(DeviceIndex = 1)  returns 0x6413041 (0000ms, 0284ms total)
T2B28 000:284 JLINK_JTAG_GetDeviceInfo(DeviceIndex = 1)  returns 0x00 (0000ms, 0284ms total)
T2B28 000:284 JLINK_GetDLLVersion()  returns 49000 (0001ms, 0285ms total)
T2B28 000:285 JLINK_CORE_GetFound()  returns 0xE0000FF (0000ms, 0285ms total)
T2B28 000:285 JLINK_GetDebugInfo(0x100) -- Value=0xE00FF003  returns 0x00 (0000ms, 0285ms total)
T2B28 000:285 JLINK_GetDebugInfo(0x101)  returns 0xFFFFFFFF (0000ms, 0285ms total)
T2B28 000:285 JLINK_ReadMemEx(0xE0041FF0, 0x0010 Bytes, ..., AccessWidth = 33554436) -- CPU is running -- CPU_ReadMem(16 bytes @ 0xE0041FF0) - Data: 0D 00 00 00 90 00 00 00 05 00 00 00 B1 00 00 00  returns 0x10 (0000ms, 0285ms total)
T2B28 000:285 JLINK_GetDebugInfo(0x102)  returns 0xFFFFFFFF (0000ms, 0285ms total)
T2B28 000:285 JLINK_GetDebugInfo(0x103)  returns 0xFFFFFFFF (0000ms, 0285ms total)
T2B28 000:285 JLINK_ReadMemEx(0xE0040FF0, 0x0010 Bytes, ..., AccessWidth = 33554436) -- CPU is running -- CPU_ReadMem(16 bytes @ 0xE0040FF0) - Data: 0D 00 00 00 90 00 00 00 05 00 00 00 B1 00 00 00  returns 0x10 (0001ms, 0286ms total)
T2B28 000:286 JLINK_GetDebugInfo(0x104)  returns 0xFFFFFFFF (0000ms, 0286ms total)
T2B28 000:286 JLINK_GetDebugInfo(0x105)  returns 0xFFFFFFFF (0000ms, 0286ms total)
T2B28 000:286 JLINK_GetDebugInfo(0x106)  returns 0xFFFFFFFF (0001ms, 0287ms total)
T2B28 000:287 JLINK_GetDebugInfo(0x107)  returns 0xFFFFFFFF (0000ms, 0287ms total)
T2B28 000:287 JLINK_GetDebugInfo(0x10C)  returns 0xFFFFFFFF (0000ms, 0287ms total)
T2B28 000:287 JLINK_ReadMemU32(0xE000EF40, 0x0001 Items, ...) -- CPU is running -- CPU_ReadMem(4 bytes @ 0xE000EF40) - Data: 21 00 11 10  returns 0x01 (0000ms, 0287ms total)
T2B28 000:288 JLINK_ReadMemU32(0xE000EF44, 0x0001 Items, ...) -- CPU is running -- CPU_ReadMem(4 bytes @ 0xE000EF44) - Data: 11 00 00 11  returns 0x01 (0000ms, 0288ms total)
T2B28 000:288 JLINK_ReadMemU32(0xE000ED00, 0x0001 Items, ...) -- CPU is running -- CPU_ReadMem(4 bytes @ 0xE000ED00) - Data: 41 C2 0F 41  returns 0x01 (0000ms, 0288ms total)
T2B28 000:288 JLINK_GetDebugInfo(0x10F)  returns 0xFFFFFFFF (0000ms, 0288ms total)
T2B28 000:288 JLINK_SetResetType(JLINKARM_RESET_TYPE_NORMAL)  returns JLINKARM_RESET_TYPE_NORMAL (0000ms, 0288ms total)
T2B28 000:288 JLINK_Reset() -- CPU is running -- CPU_WriteMem(4 bytes @ 0xE000EDF0) -- CPU is running -- CPU_WriteMem(4 bytes @ 0xE000EDFC) -- CPU is running -- CPU_WriteMem(4 bytes @ 0xE000ED0C) -- CPU is running -- CPU_ReadMem(4 bytes @ 0xE000EDF0) -- CPU is running -- CPU_ReadMem(4 bytes @ 0xE000EDF0) -- CPU is running -- CPU_WriteMem(4 bytes @ 0xE000EDF0) -- CPU is running -- CPU_WriteMem(4 bytes @ 0xE000EDFC) -- CPU is running -- CPU_ReadMem(4 bytes @ 0xE000EDF0) >0x80 JTAG> >0x40 JTAG> >0x30 JTAG>
 >0x40 JTAG> >0x50 JTAG> >0x40 JTAG> -- CPU_WriteMem(4 bytes @ 0xE000EDFC) -- CPU_WriteMem(4 bytes @ 0xE0001028) -- CPU_WriteMem(4 bytes @ 0xE0001038) -- CPU_WriteMem(4 bytes @ 0xE0001048) -- CPU_WriteMem(4 bytes @ 0xE0001058) -- CPU_WriteMem(4 bytes @ 0xE0002000) -- CPU_ReadMem(4 bytes @ 0xE000EDFC) -- CPU_ReadMem(4 bytes @ 0xE0001000) (0024ms, 0312ms total)
T2B28 000:312 JLINK_ReadReg(R15 (PC))  returns 0x08000258 (0000ms, 0312ms total)
T2B28 000:312 JLINK_ReadReg(XPSR)  returns 0x01000000 (0000ms, 0312ms total)
T2B28 000:312 JLINK_Halt()  returns 0x00 (0001ms, 0313ms total)
T2B28 000:313 JLINK_ReadMemU32(0xE000EDF0, 0x0001 Items, ...) -- CPU_ReadMem(4 bytes @ 0xE000EDF0) - Data: 03 00 03 00  returns 0x01 (0000ms, 0313ms total)
T2B28 000:313 JLINK_WriteU32(0xE000EDF0, 0xA05F0003) -- CPU_WriteMem(4 bytes @ 0xE000EDF0)  returns 0x00 (0000ms, 0313ms total)
T2B28 000:313 JLINK_WriteU32(0xE000EDFC, 0x01000000) -- CPU_WriteMem(4 bytes @ 0xE000EDFC)  returns 0x00 (0001ms, 0314ms total)
T2B28 000:314 JLINK_GetHWStatus(...)  returns 0x00 (0000ms, 0314ms total)
T2B28 000:314 JLINK_GetNumBPUnits(Type = 0xFFFFFF00)  returns 0x06 (0000ms, 0314ms total)
T2B28 000:314 JLINK_GetNumBPUnits(Type = 0xF0)  returns 0x2000 (0000ms, 0314ms total)
T2B28 000:314 JLINK_GetNumWPUnits()  returns 0x04 (0000ms, 0314ms total)
T2B28 000:314 JLINK_GetSpeed()  returns 0x1388 (0000ms, 0314ms total)
T2B28 000:314 JLINK_ReadMemU32(0xE000E004, 0x0001 Items, ...) -- CPU_ReadMem(4 bytes @ 0xE000E004) - Data: 02 00 00 00  returns 0x01 (0000ms, 0314ms total)
T2B28 000:314 JLINK_ReadMemU32(0xE000E004, 0x0001 Items, ...) -- CPU_ReadMem(4 bytes @ 0xE000E004) - Data: 02 00 00 00  returns 0x01 (0001ms, 0315ms total)
T2B28 000:315 JLINK_WriteMemEx(0xE0001000, 0x001C Bytes, ..., AccessWidth = 33554436) - Data: 01 00 00 00 00 00 00 00 00 00 00 00 00 00 00 00 ... -- CPU_WriteMem(28 bytes @ 0xE0001000)  returns 0x1C (0000ms, 0315ms total)
T2B28 000:315 JLINK_ReadReg(R15 (PC))  returns 0x08000258 (0000ms, 0315ms total)
T2B28 000:315 JLINK_ReadReg(XPSR)  returns 0x01000000 (0000ms, 0315ms total)
T2B28 000:415 JLINK_SetResetType(JLINKARM_RESET_TYPE_NORMAL)  returns JLINKARM_RESET_TYPE_NORMAL (0000ms, 0315ms total)
T2B28 000:415 JLINK_Reset() -- CPU_WriteMem(4 bytes @ 0xE000EDF0) -- CPU_WriteMem(4 bytes @ 0xE000EDFC) -- CPU_WriteMem(4 bytes @ 0xE000ED0C) -- CPU_ReadMem(4 bytes @ 0xE000EDF0) -- CPU_ReadMem(4 bytes @ 0xE000EDF0) -- CPU_WriteMem(4 bytes @ 0xE000EDF0) -- CPU_WriteMem(4 bytes @ 0xE000EDFC) -- CPU is running -- CPU_ReadMem(4 bytes @ 0xE000EDF0) >0x80 JTAG> >0x40 JTAG> >0x30 JTAG> >0x40 JTAG> >0x50 JTAG> >0x40 JTAG> -- CPU_WriteMem(4 bytes @ 0xE000EDFC) -- CPU_WriteMem(4 bytes @ 0xE0001028)
 -- CPU_WriteMem(4 bytes @ 0xE0001038) -- CPU_WriteMem(4 bytes @ 0xE0001048) -- CPU_WriteMem(4 bytes @ 0xE0001058) -- CPU_WriteMem(4 bytes @ 0xE0002000) -- CPU_ReadMem(4 bytes @ 0xE000EDFC) -- CPU_ReadMem(4 bytes @ 0xE0001000) (0029ms, 0344ms total)
T2B28 000:444 JLINK_ReadReg(R15 (PC))  returns 0x08000258 (0000ms, 0344ms total)
T2B28 000:444 JLINK_ReadReg(XPSR)  returns 0x01000000 (0000ms, 0344ms total)
T2B28 000:444 JLINK_ReadMemEx(0x08000258, 0x003C Bytes, ..., AccessWidth = 33554432)Mis-aligned memory read: Address: 0x08000258, NumBytes: 60, Alignment: 2 (Halfword-aligned)
  ***** Mis-aligned memory read: Address: 0x08000258, NumBytes: 60, Alignment: 2 (Halfword-aligned) -- CPU_ReadMem(128 bytes @ 0x08000240) -- Updating C cache (128 bytes @ 0x08000240) -- Read from C cache (60 bytes @ 0x08000258) - Data: 06 48 80 47 06 48 00 47 FE E7 FE E7 FE E7 FE E7 ...  returns 0x3C (0002ms, 0346ms total)
T2B28 001:685 JLINK_ReadReg(R0)  returns 0x00000000 (0000ms, 0346ms total)
T2B28 001:685 JLINK_ReadReg(R1)  returns 0x00000000 (0000ms, 0346ms total)
T2B28 001:685 JLINK_ReadReg(R2)  returns 0x00000000 (0000ms, 0346ms total)
T2B28 001:685 JLINK_ReadReg(R3)  returns 0x00000000 (0000ms, 0346ms total)
T2B28 001:685 JLINK_ReadReg(R4)  returns 0x00000000 (0000ms, 0346ms total)
T2B28 001:685 JLINK_ReadReg(R5)  returns 0x00000000 (0000ms, 0346ms total)
T2B28 001:685 JLINK_ReadReg(R6)  returns 0x00000000 (0001ms, 0347ms total)
T2B28 001:686 JLINK_ReadReg(R7)  returns 0x00000000 (0000ms, 0347ms total)
T2B28 001:686 JLINK_ReadReg(R8)  returns 0x00000000 (0000ms, 0347ms total)
T2B28 001:686 JLINK_ReadReg(R9)  returns 0x00000000 (0000ms, 0347ms total)
T2B28 001:686 JLINK_ReadReg(R10)  returns 0x00000000 (0000ms, 0347ms total)
T2B28 001:686 JLINK_ReadReg(R11)  returns 0x00000000 (0000ms, 0347ms total)
T2B28 001:686 JLINK_ReadReg(R12)  returns 0x00000000 (0000ms, 0347ms total)
T2B28 001:686 JLINK_ReadReg(R13 (SP))  returns 0x20006158 (0000ms, 0347ms total)
T2B28 001:686 JLINK_ReadReg(R14)  returns 0xFFFFFFFF (0000ms, 0347ms total)
T2B28 001:686 JLINK_ReadReg(R15 (PC))  returns 0x08000258 (0000ms, 0347ms total)
T2B28 001:686 JLINK_ReadReg(XPSR)  returns 0x01000000 (0000ms, 0347ms total)
T2B28 001:686 JLINK_ReadReg(MSP)  returns 0x20006158 (0000ms, 0347ms total)
T2B28 001:686 JLINK_ReadReg(PSP)  returns 0x00000000 (0000ms, 0347ms total)
T2B28 001:686 JLINK_ReadReg(CFBP)  returns 0x00000000 (0000ms, 0347ms total)
T2B28 001:686 JLINK_ReadReg(FPSCR)  returns 0x00000000 (0002ms, 0349ms total)
T2B28 001:688 JLINK_ReadReg(FPS0)  returns 0x00000000 (0000ms, 0349ms total)
T2B28 001:688 JLINK_ReadReg(FPS1)  returns 0x00000000 (0000ms, 0349ms total)
T2B28 001:688 JLINK_ReadReg(FPS2)  returns 0x00000000 (0000ms, 0349ms total)
T2B28 001:688 JLINK_ReadReg(FPS3)  returns 0x00000000 (0000ms, 0349ms total)
T2B28 001:688 JLINK_ReadReg(FPS4)  returns 0x00000000 (0000ms, 0349ms total)
T2B28 001:688 JLINK_ReadReg(FPS5)  returns 0x00000000 (0000ms, 0349ms total)
T2B28 001:688 JLINK_ReadReg(FPS6)  returns 0x00000000 (0000ms, 0349ms total)
T2B28 001:688 JLINK_ReadReg(FPS7)  returns 0x00000000 (0000ms, 0349ms total)
T2B28 001:688 JLINK_ReadReg(FPS8)  returns 0x00000000 (0000ms, 0349ms total)
T2B28 001:688 JLINK_ReadReg(FPS9)  returns 0x00000000 (0000ms, 0349ms total)
T2B28 001:688 JLINK_ReadReg(FPS10)  returns 0x00000000 (0000ms, 0349ms total)
T2B28 001:688 JLINK_ReadReg(FPS11)  returns 0x00000000 (0000ms, 0349ms total)
T2B28 001:689 JLINK_ReadReg(FPS12)  returns 0x00000000 (0000ms, 0349ms total)
T2B28 001:689 JLINK_ReadReg(FPS13)  returns 0x00000000 (0000ms, 0349ms total)
T2B28 001:689 JLINK_ReadReg(FPS14)  returns 0x00000000 (0000ms, 0349ms total)
T2B28 001:689 JLINK_ReadReg(FPS15)  returns 0x00000000 (0000ms, 0349ms total)
T2B28 001:689 JLINK_ReadReg(FPS16)  returns 0x00000000 (0000ms, 0349ms total)
T2B28 001:689 JLINK_ReadReg(FPS17)  returns 0x00000000 (0000ms, 0349ms total)
T2B28 001:689 JLINK_ReadReg(FPS18)  returns 0x00000000 (0000ms, 0349ms total)
T2B28 001:689 JLINK_ReadReg(FPS19)  returns 0x00000000 (0000ms, 0349ms total)
T2B28 001:689 JLINK_ReadReg(FPS20)  returns 0x00000000 (0000ms, 0349ms total)
T2B28 001:689 JLINK_ReadReg(FPS21)  returns 0x00000000 (0000ms, 0349ms total)
T2B28 001:689 JLINK_ReadReg(FPS22)  returns 0x00000000 (0000ms, 0349ms total)
T2B28 001:689 JLINK_ReadReg(FPS23)  returns 0x00000000 (0000ms, 0349ms total)
T2B28 001:689 JLINK_ReadReg(FPS24)  returns 0x00000000 (0000ms, 0349ms total)
T2B28 001:689 JLINK_ReadReg(FPS25)  returns 0x00000000 (0000ms, 0349ms total)
T2B28 001:689 JLINK_ReadReg(FPS26)  returns 0x00000000 (0000ms, 0349ms total)
T2B28 001:689 JLINK_ReadReg(FPS27)  returns 0x00000000 (0000ms, 0349ms total)
T2B28 001:689 JLINK_ReadReg(FPS28)  returns 0x00000000 (0000ms, 0349ms total)
T2B28 001:689 JLINK_ReadReg(FPS29)  returns 0x00000000 (0000ms, 0349ms total)
T2B28 001:689 JLINK_ReadReg(FPS30)  returns 0x00000000 (0000ms, 0349ms total)
T2B28 001:689 JLINK_ReadReg(FPS31)  returns 0x00000000 (0000ms, 0349ms total)
T2B28 001:763 JLINK_ReadMemEx(0x20000050, 0x0004 Bytes, ..., AccessWidth = 33554432)Mis-aligned memory read: Address: 0x20000050, NumBytes: 4, Alignment: 2 (Halfword-aligned)
  ***** Mis-aligned memory read: Address: 0x20000050, NumBytes: 4, Alignment: 2 (Halfword-aligned) -- CPU_ReadMem(64 bytes @ 0x20000040) -- Updating C cache (64 bytes @ 0x20000040) -- Read from C cache (4 bytes @ 0x20000050) - Data: 00 00 00 41  returns 0x04 (0001ms, 0350ms total)
T2B28 001:769 JLINK_ReadMemEx(0x20000054, 0x0004 Bytes, ..., AccessWidth = 33554432)Mis-aligned memory read: Address: 0x20000054, NumBytes: 4, Alignment: 2 (Halfword-aligned)
  ***** Mis-aligned memory read: Address: 0x20000054, NumBytes: 4, Alignment: 2 (Halfword-aligned) -- Read from C cache (4 bytes @ 0x20000054) - Data: 00 00 40 41  returns 0x04 (0001ms, 0351ms total)
T25B8 001:799 JLINK_ReadMemEx(0x08000258, 0x0002 Bytes, ..., AccessWidth = 33554432)Mis-aligned memory read: Address: 0x08000258, NumBytes: 2, Alignment: 2 (Halfword-aligned)
  ***** Mis-aligned memory read: Address: 0x08000258, NumBytes: 2, Alignment: 2 (Halfword-aligned) -- Read from C cache (2 bytes @ 0x08000258) - Data: 06 48  returns 0x02 (0000ms, 0351ms total)
T25B8 001:799 JLINK_SetBPEx(Addr = 0x08005378, Type = 0xFFFFFFF2)  returns 0x00000001 (0000ms, 0351ms total)
T25B8 001:799 JLINK_SetBPEx(Addr = 0x08006BB8, Type = 0xFFFFFFF2)  returns 0x00000002 (0001ms, 0352ms total)
T25B8 001:800 JLINK_SetBPEx(Addr = 0x08006BA0, Type = 0xFFFFFFF2)  returns 0x00000003 (0000ms, 0352ms total)
T25B8 001:800 JLINK_SetBPEx(Addr = 0x08006B7A, Type = 0xFFFFFFF2)  returns 0x00000004 (0000ms, 0352ms total)
T25B8 001:800 JLINK_SetBPEx(Addr = 0x08006B72, Type = 0xFFFFFFF2)  returns 0x00000005 (0000ms, 0352ms total)
T25B8 001:800 JLINK_Go() -- CPU_WriteMem(4 bytes @ 0xE0002008) -- CPU_WriteMem(4 bytes @ 0xE000200C) -- CPU_WriteMem(4 bytes @ 0xE0002010) -- CPU_WriteMem(4 bytes @ 0xE0002014) -- CPU_WriteMem(4 bytes @ 0xE0002018) -- CPU_WriteMem(4 bytes @ 0xE000201C) -- CPU_WriteMem(4 bytes @ 0xE0001004) (0003ms, 0355ms total)
T25B8 001:903 JLINK_IsHalted()  returns TRUE (0002ms, 0357ms total)
T25B8 001:905 JLINK_Halt()  returns 0x00 (0000ms, 0355ms total)
T25B8 001:905 JLINK_IsHalted()  returns TRUE (0000ms, 0355ms total)
T25B8 001:905 JLINK_IsHalted()  returns TRUE (0000ms, 0355ms total)
T25B8 001:905 JLINK_IsHalted()  returns TRUE (0000ms, 0355ms total)
T25B8 001:905 JLINK_ReadReg(R15 (PC))  returns 0x08005378 (0000ms, 0355ms total)
T25B8 001:905 JLINK_ReadReg(XPSR)  returns 0x61000000 (0000ms, 0355ms total)
T25B8 001:905 JLINK_ClrBPEx(BPHandle = 0x00000001)  returns 0x00 (0000ms, 0355ms total)
T25B8 001:905 JLINK_ClrBPEx(BPHandle = 0x00000002)  returns 0x00 (0000ms, 0355ms total)
T25B8 001:905 JLINK_ClrBPEx(BPHandle = 0x00000003)  returns 0x00 (0000ms, 0355ms total)
T25B8 001:905 JLINK_ClrBPEx(BPHandle = 0x00000004)  returns 0x00 (0000ms, 0355ms total)
T25B8 001:905 JLINK_ClrBPEx(BPHandle = 0x00000005)  returns 0x00 (0000ms, 0355ms total)
T25B8 001:905 JLINK_ReadMemU32(0xE000ED30, 0x0001 Items, ...) -- CPU_ReadMem(4 bytes @ 0xE000ED30) - Data: 02 00 00 00  returns 0x01 (0001ms, 0356ms total)
T25B8 001:906 JLINK_ReadMemU32(0xE0001028, 0x0001 Items, ...) -- CPU_ReadMem(4 bytes @ 0xE0001028) - Data: 00 00 00 00  returns 0x01 (0000ms, 0356ms total)
T25B8 001:906 JLINK_ReadMemU32(0xE0001038, 0x0001 Items, ...) -- CPU_ReadMem(4 bytes @ 0xE0001038) - Data: 00 02 00 00  returns 0x01 (0000ms, 0356ms total)
T25B8 001:906 JLINK_ReadMemU32(0xE0001048, 0x0001 Items, ...) -- CPU_ReadMem(4 bytes @ 0xE0001048) - Data: 00 00 00 00  returns 0x01 (0001ms, 0357ms total)
T25B8 001:907 JLINK_ReadMemU32(0xE0001058, 0x0001 Items, ...) -- CPU_ReadMem(4 bytes @ 0xE0001058) - Data: 00 00 00 00  returns 0x01 (0000ms, 0357ms total)
T25B8 001:907 JLINK_ReadReg(R0)  returns 0x08005379 (0000ms, 0357ms total)
T25B8 001:907 JLINK_ReadReg(R1)  returns 0x20006158 (0000ms, 0357ms total)
T25B8 001:907 JLINK_ReadReg(R2)  returns 0x00000000 (0000ms, 0357ms total)
T25B8 001:907 JLINK_ReadReg(R3)  returns 0x08003C59 (0000ms, 0357ms total)
T25B8 001:907 JLINK_ReadReg(R4)  returns 0x080080A0 (0000ms, 0357ms total)
T25B8 001:907 JLINK_ReadReg(R5)  returns 0x080080A0 (0000ms, 0357ms total)
T25B8 001:907 JLINK_ReadReg(R6)  returns 0x00000000 (0001ms, 0358ms total)
T25B8 001:908 JLINK_ReadReg(R7)  returns 0x00000000 (0000ms, 0358ms total)
T25B8 001:908 JLINK_ReadReg(R8)  returns 0x00000000 (0000ms, 0358ms total)
T25B8 001:908 JLINK_ReadReg(R9)  returns 0x00000000 (0000ms, 0358ms total)
T25B8 001:908 JLINK_ReadReg(R10)  returns 0x00000000 (0000ms, 0358ms total)
T25B8 001:908 JLINK_ReadReg(R11)  returns 0x00000000 (0000ms, 0358ms total)
T25B8 001:908 JLINK_ReadReg(R12)  returns 0x00000000 (0000ms, 0358ms total)
T25B8 001:908 JLINK_ReadReg(R13 (SP))  returns 0x20006158 (0000ms, 0358ms total)
T25B8 001:908 JLINK_ReadReg(R14)  returns 0x080008D9 (0000ms, 0358ms total)
T25B8 001:908 JLINK_ReadReg(R15 (PC))  returns 0x08005378 (0000ms, 0358ms total)
T25B8 001:908 JLINK_ReadReg(XPSR)  returns 0x61000000 (0000ms, 0358ms total)
T25B8 001:908 JLINK_ReadReg(MSP)  returns 0x20006158 (0000ms, 0358ms total)
T25B8 001:908 JLINK_ReadReg(PSP)  returns 0x00000000 (0000ms, 0358ms total)
T25B8 001:908 JLINK_ReadReg(CFBP)  returns 0x00000000 (0000ms, 0358ms total)
T25B8 001:908 JLINK_ReadReg(FPSCR)  returns 0x00000000 (0003ms, 0361ms total)
T25B8 001:911 JLINK_ReadReg(FPS0)  returns 0x00000000 (0000ms, 0361ms total)
T25B8 001:911 JLINK_ReadReg(FPS1)  returns 0x00000000 (0000ms, 0361ms total)
T25B8 001:911 JLINK_ReadReg(FPS2)  returns 0x00000000 (0000ms, 0361ms total)
T25B8 001:911 JLINK_ReadReg(FPS3)  returns 0x00000000 (0000ms, 0361ms total)
T25B8 001:911 JLINK_ReadReg(FPS4)  returns 0x00000000 (0000ms, 0361ms total)
T25B8 001:911 JLINK_ReadReg(FPS5)  returns 0x00000000 (0000ms, 0361ms total)
T25B8 001:911 JLINK_ReadReg(FPS6)  returns 0x00000000 (0000ms, 0361ms total)
T25B8 001:911 JLINK_ReadReg(FPS7)  returns 0x00000000 (0000ms, 0361ms total)
T25B8 001:911 JLINK_ReadReg(FPS8)  returns 0x00000000 (0000ms, 0361ms total)
T25B8 001:911 JLINK_ReadReg(FPS9)  returns 0x00000000 (0000ms, 0361ms total)
T25B8 001:911 JLINK_ReadReg(FPS10)  returns 0x00000000 (0000ms, 0361ms total)
T25B8 001:911 JLINK_ReadReg(FPS11)  returns 0x00000000 (0000ms, 0361ms total)
T25B8 001:911 JLINK_ReadReg(FPS12)  returns 0x00000000 (0000ms, 0361ms total)
T25B8 001:911 JLINK_ReadReg(FPS13)  returns 0x00000000 (0000ms, 0361ms total)
T25B8 001:911 JLINK_ReadReg(FPS14)  returns 0x00000000 (0000ms, 0361ms total)
T25B8 001:911 JLINK_ReadReg(FPS15)  returns 0x00000000 (0001ms, 0362ms total)
T25B8 001:912 JLINK_ReadReg(FPS16)  returns 0x00000000 (0000ms, 0362ms total)
T25B8 001:912 JLINK_ReadReg(FPS17)  returns 0x00000000 (0000ms, 0362ms total)
T25B8 001:912 JLINK_ReadReg(FPS18)  returns 0x00000000 (0000ms, 0362ms total)
T25B8 001:912 JLINK_ReadReg(FPS19)  returns 0x00000000 (0000ms, 0362ms total)
T25B8 001:912 JLINK_ReadReg(FPS20)  returns 0x00000000 (0000ms, 0362ms total)
T25B8 001:912 JLINK_ReadReg(FPS21)  returns 0x00000000 (0000ms, 0362ms total)
T25B8 001:912 JLINK_ReadReg(FPS22)  returns 0x00000000 (0000ms, 0362ms total)
T25B8 001:912 JLINK_ReadReg(FPS23)  returns 0x00000000 (0000ms, 0362ms total)
T25B8 001:912 JLINK_ReadReg(FPS24)  returns 0x00000000 (0000ms, 0362ms total)
T25B8 001:912 JLINK_ReadReg(FPS25)  returns 0x00000000 (0000ms, 0362ms total)
T25B8 001:912 JLINK_ReadReg(FPS26)  returns 0x00000000 (0000ms, 0362ms total)
T25B8 001:912 JLINK_ReadReg(FPS27)  returns 0x00000000 (0000ms, 0362ms total)
T25B8 001:912 JLINK_ReadReg(FPS28)  returns 0x00000000 (0000ms, 0362ms total)
T25B8 001:912 JLINK_ReadReg(FPS29)  returns 0x00000000 (0000ms, 0362ms total)
T25B8 001:912 JLINK_ReadReg(FPS30)  returns 0x00000000 (0000ms, 0362ms total)
T25B8 001:912 JLINK_ReadReg(FPS31)  returns 0x00000000 (0000ms, 0362ms total)
T2B28 001:913 JLINK_ReadMemEx(0x20000050, 0x0004 Bytes, ..., AccessWidth = 33554432)Mis-aligned memory read: Address: 0x20000050, NumBytes: 4, Alignment: 2 (Halfword-aligned)
  ***** Mis-aligned memory read: Address: 0x20000050, NumBytes: 4, Alignment: 2 (Halfword-aligned) -- CPU_ReadMem(64 bytes @ 0x20000040) -- Updating C cache (64 bytes @ 0x20000040) -- Read from C cache (4 bytes @ 0x20000050) - Data: 00 00 00 00  returns 0x04 (0001ms, 0363ms total)
T2B28 001:914 JLINK_ReadMemEx(0x20000054, 0x0004 Bytes, ..., AccessWidth = 33554432)Mis-aligned memory read: Address: 0x20000054, NumBytes: 4, Alignment: 2 (Halfword-aligned)
  ***** Mis-aligned memory read: Address: 0x20000054, NumBytes: 4, Alignment: 2 (Halfword-aligned) -- Read from C cache (4 bytes @ 0x20000054) - Data: 00 00 00 00  returns 0x04 (0000ms, 0363ms total)
T2B28 004:331 JLINK_ReadMemEx(0x200001FC, 0x0004 Bytes, ..., AccessWidth = 33554432)Mis-aligned memory read: Address: 0x200001FC, NumBytes: 4, Alignment: 2 (Halfword-aligned)
  ***** Mis-aligned memory read: Address: 0x200001FC, NumBytes: 4, Alignment: 2 (Halfword-aligned) -- CPU_ReadMem(64 bytes @ 0x200001C0) -- Updating C cache (64 bytes @ 0x200001C0) -- Read from C cache (4 bytes @ 0x200001FC) - Data: 00 00 00 00  returns 0x04 (0003ms, 0366ms total)
T2B28 004:334 JLINK_ReadMemEx(0x20000200, 0x0004 Bytes, ..., AccessWidth = 33554432)Mis-aligned memory read: Address: 0x20000200, NumBytes: 4, Alignment: 2 (Halfword-aligned)
  ***** Mis-aligned memory read: Address: 0x20000200, NumBytes: 4, Alignment: 2 (Halfword-aligned) -- CPU_ReadMem(64 bytes @ 0x20000200) -- Updating C cache (64 bytes @ 0x20000200) -- Read from C cache (4 bytes @ 0x20000200) - Data: 00 00 00 00  returns 0x04 (0001ms, 0367ms total)
T2B28 004:335 JLINK_ReadMemEx(0x20000204, 0x0004 Bytes, ..., AccessWidth = 33554432)Mis-aligned memory read: Address: 0x20000204, NumBytes: 4, Alignment: 2 (Halfword-aligned)
  ***** Mis-aligned memory read: Address: 0x20000204, NumBytes: 4, Alignment: 2 (Halfword-aligned) -- Read from C cache (4 bytes @ 0x20000204) - Data: 00 00 00 00  returns 0x04 (0000ms, 0367ms total)
T2B28 004:335 JLINK_ReadMemEx(0x20000208, 0x0004 Bytes, ..., AccessWidth = 33554432)Mis-aligned memory read: Address: 0x20000208, NumBytes: 4, Alignment: 2 (Halfword-aligned)
  ***** Mis-aligned memory read: Address: 0x20000208, NumBytes: 4, Alignment: 2 (Halfword-aligned) -- Read from C cache (4 bytes @ 0x20000208) - Data: 00 00 00 00  returns 0x04 (0000ms, 0367ms total)
T2B28 004:335 JLINK_ReadMemEx(0x2000020C, 0x0004 Bytes, ..., AccessWidth = 33554432)Mis-aligned memory read: Address: 0x2000020C, NumBytes: 4, Alignment: 2 (Halfword-aligned)
  ***** Mis-aligned memory read: Address: 0x2000020C, NumBytes: 4, Alignment: 2 (Halfword-aligned) -- Read from C cache (4 bytes @ 0x2000020C) - Data: 00 00 00 00  returns 0x04 (0000ms, 0367ms total)
T25B8 005:689 JLINK_ReadMemEx(0x08005378, 0x0002 Bytes, ..., AccessWidth = 33554432)Mis-aligned memory read: Address: 0x08005378, NumBytes: 2, Alignment: 2 (Halfword-aligned)
  ***** Mis-aligned memory read: Address: 0x08005378, NumBytes: 2, Alignment: 2 (Halfword-aligned) -- CPU_ReadMem(64 bytes @ 0x08005340) -- Updating C cache (64 bytes @ 0x08005340) -- Read from C cache (2 bytes @ 0x08005378) - Data: FC F7  returns 0x02 (0004ms, 0371ms total)
T25B8 005:693 JLINK_SetBPEx(Addr = 0x08006BB8, Type = 0xFFFFFFF2)  returns 0x00000006 (0000ms, 0371ms total)
T25B8 005:693 JLINK_SetBPEx(Addr = 0x08006BA0, Type = 0xFFFFFFF2)  returns 0x00000007 (0000ms, 0371ms total)
T25B8 005:693 JLINK_SetBPEx(Addr = 0x08006B7A, Type = 0xFFFFFFF2)  returns 0x00000008 (0000ms, 0371ms total)
T25B8 005:694 JLINK_SetBPEx(Addr = 0x08006B72, Type = 0xFFFFFFF2)  returns 0x00000009 (0000ms, 0371ms total)
T25B8 005:694 JLINK_Go() -- CPU_WriteMem(4 bytes @ 0xE0002008) -- CPU_WriteMem(4 bytes @ 0xE000200C) -- CPU_WriteMem(4 bytes @ 0xE0002010) -- CPU_WriteMem(4 bytes @ 0xE0002014) -- CPU_WriteMem(4 bytes @ 0xE0002018) (0002ms, 0373ms total)
T25B8 005:797 JLINK_IsHalted()  returns TRUE (0003ms, 0376ms total)
T25B8 005:800 JLINK_Halt()  returns 0x00 (0000ms, 0373ms total)
T25B8 005:800 JLINK_IsHalted()  returns TRUE (0000ms, 0373ms total)
T25B8 005:800 JLINK_IsHalted()  returns TRUE (0000ms, 0373ms total)
T25B8 005:800 JLINK_IsHalted()  returns TRUE (0000ms, 0373ms total)
T25B8 005:800 JLINK_ReadReg(R15 (PC))  returns 0x08006B72 (0001ms, 0374ms total)
T25B8 005:801 JLINK_ReadReg(XPSR)  returns 0x61000000 (0000ms, 0374ms total)
T25B8 005:801 JLINK_ClrBPEx(BPHandle = 0x00000006)  returns 0x00 (0000ms, 0374ms total)
T25B8 005:801 JLINK_ClrBPEx(BPHandle = 0x00000007)  returns 0x00 (0000ms, 0374ms total)
T25B8 005:801 JLINK_ClrBPEx(BPHandle = 0x00000008)  returns 0x00 (0000ms, 0374ms total)
T25B8 005:801 JLINK_ClrBPEx(BPHandle = 0x00000009)  returns 0x00 (0000ms, 0374ms total)
T25B8 005:801 JLINK_ReadMemU32(0xE000ED30, 0x0001 Items, ...) -- CPU_ReadMem(4 bytes @ 0xE000ED30) - Data: 02 00 00 00  returns 0x01 (0001ms, 0375ms total)
T25B8 005:802 JLINK_ReadMemU32(0xE0001028, 0x0001 Items, ...) -- CPU_ReadMem(4 bytes @ 0xE0001028) - Data: 00 00 00 00  returns 0x01 (0001ms, 0376ms total)
T25B8 005:803 JLINK_ReadMemU32(0xE0001038, 0x0001 Items, ...) -- CPU_ReadMem(4 bytes @ 0xE0001038) - Data: 00 02 00 00  returns 0x01 (0001ms, 0377ms total)
T25B8 005:804 JLINK_ReadMemU32(0xE0001048, 0x0001 Items, ...) -- CPU_ReadMem(4 bytes @ 0xE0001048) - Data: 00 00 00 00  returns 0x01 (0000ms, 0377ms total)
T25B8 005:805 JLINK_ReadMemU32(0xE0001058, 0x0001 Items, ...) -- CPU_ReadMem(4 bytes @ 0xE0001058) - Data: 00 00 00 00  returns 0x01 (0001ms, 0379ms total)
T25B8 005:806 JLINK_ReadReg(R0)  returns 0x00000000 (0000ms, 0379ms total)
T25B8 005:806 JLINK_ReadReg(R1)  returns 0x00000000 (0000ms, 0379ms total)
T25B8 005:806 JLINK_ReadReg(R2)  returns 0x00000000 (0000ms, 0379ms total)
T25B8 005:806 JLINK_ReadReg(R3)  returns 0x00000000 (0000ms, 0379ms total)
T25B8 005:806 JLINK_ReadReg(R4)  returns 0x00000000 (0000ms, 0379ms total)
T25B8 005:806 JLINK_ReadReg(R5)  returns 0x00000000 (0000ms, 0379ms total)
T25B8 005:806 JLINK_ReadReg(R6)  returns 0x00000000 (0001ms, 0380ms total)
T25B8 005:807 JLINK_ReadReg(R7)  returns 0x00000000 (0000ms, 0380ms total)
T25B8 005:807 JLINK_ReadReg(R8)  returns 0x00000000 (0000ms, 0380ms total)
T25B8 005:807 JLINK_ReadReg(R9)  returns 0x00000000 (0000ms, 0380ms total)
T25B8 005:807 JLINK_ReadReg(R10)  returns 0x00000000 (0000ms, 0380ms total)
T25B8 005:807 JLINK_ReadReg(R11)  returns 0x00000000 (0000ms, 0380ms total)
T25B8 005:807 JLINK_ReadReg(R12)  returns 0x00000000 (0000ms, 0380ms total)
T25B8 005:807 JLINK_ReadReg(R13 (SP))  returns 0x20000C60 (0001ms, 0381ms total)
T25B8 005:808 JLINK_ReadReg(R14)  returns 0x08006B73 (0000ms, 0381ms total)
T25B8 005:808 JLINK_ReadReg(R15 (PC))  returns 0x08006B72 (0000ms, 0381ms total)
T25B8 005:808 JLINK_ReadReg(XPSR)  returns 0x61000000 (0000ms, 0381ms total)
T25B8 005:808 JLINK_ReadReg(MSP)  returns 0x20006138 (0000ms, 0381ms total)
T25B8 005:808 JLINK_ReadReg(PSP)  returns 0x20000C60 (0000ms, 0381ms total)
T25B8 005:808 JLINK_ReadReg(CFBP)  returns 0x06000000 (0000ms, 0381ms total)
T25B8 005:808 JLINK_ReadReg(FPSCR)  returns 0x00000000 (0005ms, 0386ms total)
T25B8 005:813 JLINK_ReadReg(FPS0)  returns 0x00000000 (0000ms, 0386ms total)
T25B8 005:813 JLINK_ReadReg(FPS1)  returns 0x00000000 (0000ms, 0386ms total)
T25B8 005:813 JLINK_ReadReg(FPS2)  returns 0x00000000 (0000ms, 0386ms total)
T25B8 005:813 JLINK_ReadReg(FPS3)  returns 0x00000000 (0000ms, 0386ms total)
T25B8 005:813 JLINK_ReadReg(FPS4)  returns 0x00000000 (0000ms, 0386ms total)
T25B8 005:813 JLINK_ReadReg(FPS5)  returns 0x00000000 (0000ms, 0386ms total)
T25B8 005:814 JLINK_ReadReg(FPS6)  returns 0x00000000 (0000ms, 0387ms total)
T25B8 005:814 JLINK_ReadReg(FPS7)  returns 0x00000000 (0000ms, 0387ms total)
T25B8 005:814 JLINK_ReadReg(FPS8)  returns 0x00000000 (0000ms, 0387ms total)
T25B8 005:814 JLINK_ReadReg(FPS9)  returns 0x00000000 (0000ms, 0387ms total)
T25B8 005:814 JLINK_ReadReg(FPS10)  returns 0x00000000 (0000ms, 0387ms total)
T25B8 005:814 JLINK_ReadReg(FPS11)  returns 0x00000000 (0000ms, 0387ms total)
T25B8 005:814 JLINK_ReadReg(FPS12)  returns 0x00000000 (0000ms, 0387ms total)
T25B8 005:814 JLINK_ReadReg(FPS13)  returns 0x00000000 (0001ms, 0388ms total)
T25B8 005:815 JLINK_ReadReg(FPS14)  returns 0x00000000 (0000ms, 0388ms total)
T25B8 005:815 JLINK_ReadReg(FPS15)  returns 0x00000000 (0000ms, 0388ms total)
T25B8 005:815 JLINK_ReadReg(FPS16)  returns 0x00000000 (0000ms, 0388ms total)
T25B8 005:815 JLINK_ReadReg(FPS17)  returns 0x00000000 (0000ms, 0388ms total)
T25B8 005:815 JLINK_ReadReg(FPS18)  returns 0x00000000 (0000ms, 0388ms total)
T25B8 005:815 JLINK_ReadReg(FPS19)  returns 0x00000000 (0000ms, 0388ms total)
T25B8 005:815 JLINK_ReadReg(FPS20)  returns 0x00000000 (0001ms, 0389ms total)
T25B8 005:816 JLINK_ReadReg(FPS21)  returns 0x00000000 (0000ms, 0389ms total)
T25B8 005:816 JLINK_ReadReg(FPS22)  returns 0x00000000 (0000ms, 0389ms total)
T25B8 005:816 JLINK_ReadReg(FPS23)  returns 0x00000000 (0000ms, 0389ms total)
T25B8 005:816 JLINK_ReadReg(FPS24)  returns 0x00000000 (0000ms, 0389ms total)
T25B8 005:816 JLINK_ReadReg(FPS25)  returns 0x00000000 (0000ms, 0389ms total)
T25B8 005:816 JLINK_ReadReg(FPS26)  returns 0x00000000 (0000ms, 0389ms total)
T25B8 005:816 JLINK_ReadReg(FPS27)  returns 0x00000000 (0001ms, 0390ms total)
T25B8 005:817 JLINK_ReadReg(FPS28)  returns 0x00000000 (0000ms, 0390ms total)
T25B8 005:817 JLINK_ReadReg(FPS29)  returns 0x00000000 (0000ms, 0390ms total)
T25B8 005:817 JLINK_ReadReg(FPS30)  returns 0x00000000 (0000ms, 0390ms total)
T25B8 005:817 JLINK_ReadReg(FPS31)  returns 0x00000000 (0000ms, 0390ms total)
T2B28 005:821 JLINK_ReadMemEx(0x20000C60, 0x0004 Bytes, ..., AccessWidth = 33554432)Mis-aligned memory read: Address: 0x20000C60, NumBytes: 4, Alignment: 2 (Halfword-aligned)
  ***** Mis-aligned memory read: Address: 0x20000C60, NumBytes: 4, Alignment: 2 (Halfword-aligned) -- CPU_ReadMem(64 bytes @ 0x20000C40) -- Updating C cache (64 bytes @ 0x20000C40) -- Read from C cache (4 bytes @ 0x20000C60) - Data: 00 00 00 00  returns 0x04 (0002ms, 0392ms total)
T2B28 005:823 JLINK_ReadMemEx(0x00000000, 0x0004 Bytes, ..., AccessWidth = 33554432) -- CPU_ReadMem(4 bytes @ 0x00000004)Mis-aligned memory read: Address: 0x00000000, NumBytes: 4, Alignment: 2 (Halfword-aligned)
  ***** Mis-aligned memory read: Address: 0x00000000, NumBytes: 4, Alignment: 2 (Halfword-aligned) -- CPU_ReadMem(64 bytes @ 0x08000000) -- Updating C cache (64 bytes @ 0x08000000) -- Read from C cache (4 bytes @ 0x08000000) - Data: 58 61 00 20  returns 0x04 (0002ms, 0394ms total)
T2B28 005:826 JLINK_ReadMemEx(0x200001FC, 0x0004 Bytes, ..., AccessWidth = 33554432)Mis-aligned memory read: Address: 0x200001FC, NumBytes: 4, Alignment: 2 (Halfword-aligned)
  ***** Mis-aligned memory read: Address: 0x200001FC, NumBytes: 4, Alignment: 2 (Halfword-aligned) -- CPU_ReadMem(64 bytes @ 0x200001C0) -- Updating C cache (64 bytes @ 0x200001C0) -- Read from C cache (4 bytes @ 0x200001FC) - Data: 00 00 00 00  returns 0x04 (0002ms, 0396ms total)
T2B28 005:828 JLINK_ReadMemEx(0x20000200, 0x0004 Bytes, ..., AccessWidth = 33554432)Mis-aligned memory read: Address: 0x20000200, NumBytes: 4, Alignment: 2 (Halfword-aligned)
  ***** Mis-aligned memory read: Address: 0x20000200, NumBytes: 4, Alignment: 2 (Halfword-aligned) -- CPU_ReadMem(64 bytes @ 0x20000200) -- Updating C cache (64 bytes @ 0x20000200) -- Read from C cache (4 bytes @ 0x20000200) - Data: 00 00 00 00  returns 0x04 (0002ms, 0398ms total)
T2B28 005:830 JLINK_ReadMemEx(0x20000204, 0x0004 Bytes, ..., AccessWidth = 33554432)Mis-aligned memory read: Address: 0x20000204, NumBytes: 4, Alignment: 2 (Halfword-aligned)
  ***** Mis-aligned memory read: Address: 0x20000204, NumBytes: 4, Alignment: 2 (Halfword-aligned) -- Read from C cache (4 bytes @ 0x20000204) - Data: 00 00 00 00  returns 0x04 (0000ms, 0398ms total)
T2B28 005:830 JLINK_ReadMemEx(0x20000208, 0x0004 Bytes, ..., AccessWidth = 33554432)Mis-aligned memory read: Address: 0x20000208, NumBytes: 4, Alignment: 2 (Halfword-aligned)
  ***** Mis-aligned memory read: Address: 0x20000208, NumBytes: 4, Alignment: 2 (Halfword-aligned) -- Read from C cache (4 bytes @ 0x20000208) - Data: 00 00 00 00  returns 0x04 (0000ms, 0398ms total)
T2B28 005:831 JLINK_ReadMemEx(0x2000020C, 0x0004 Bytes, ..., AccessWidth = 33554432)Mis-aligned memory read: Address: 0x2000020C, NumBytes: 4, Alignment: 2 (Halfword-aligned)
  ***** Mis-aligned memory read: Address: 0x2000020C, NumBytes: 4, Alignment: 2 (Halfword-aligned) -- Read from C cache (4 bytes @ 0x2000020C) - Data: 00 00 00 00  returns 0x04 (0000ms, 0398ms total)
T2B28 005:831 JLINK_ReadMemEx(0x20000050, 0x0004 Bytes, ..., AccessWidth = 33554432)Mis-aligned memory read: Address: 0x20000050, NumBytes: 4, Alignment: 2 (Halfword-aligned)
  ***** Mis-aligned memory read: Address: 0x20000050, NumBytes: 4, Alignment: 2 (Halfword-aligned) -- CPU_ReadMem(64 bytes @ 0x20000040) -- Updating C cache (64 bytes @ 0x20000040) -- Read from C cache (4 bytes @ 0x20000050) - Data: 00 00 00 00  returns 0x04 (0001ms, 0399ms total)
T2B28 005:833 JLINK_ReadMemEx(0x20000054, 0x0004 Bytes, ..., AccessWidth = 33554432)Mis-aligned memory read: Address: 0x20000054, NumBytes: 4, Alignment: 2 (Halfword-aligned)
  ***** Mis-aligned memory read: Address: 0x20000054, NumBytes: 4, Alignment: 2 (Halfword-aligned) -- Read from C cache (4 bytes @ 0x20000054) - Data: 00 00 00 00  returns 0x04 (0000ms, 0399ms total)
T25B8 008:601 JLINK_ReadMemEx(0x08006B72, 0x0002 Bytes, ..., AccessWidth = 33554432)Mis-aligned memory read: Address: 0x08006B72, NumBytes: 2, Alignment: 2 (Halfword-aligned)
  ***** Mis-aligned memory read: Address: 0x08006B72, NumBytes: 2, Alignment: 2 (Halfword-aligned) -- CPU_ReadMem(64 bytes @ 0x08006B40) -- Updating C cache (64 bytes @ 0x08006B40) -- Read from C cache (2 bytes @ 0x08006B72) - Data: 31 4C  returns 0x02 (0003ms, 0402ms total)
T25B8 008:604 JLINK_Step() -- Read from C cache (2 bytes @ 0x08006B72) -- CPU_ReadMem(4 bytes @ 0xE0001004) -- CPU_ReadMem(64 bytes @ 0x08006C00) -- Updating C cache (64 bytes @ 0x08006C00) -- Read from C cache (4 bytes @ 0x08006C38) -- Simulated  returns 0x00 (0001ms, 0403ms total)
T25B8 008:605 JLINK_ReadReg(R15 (PC))  returns 0x08006B74 (0000ms, 0403ms total)
T25B8 008:605 JLINK_ReadReg(XPSR)  returns 0x61000000 (0000ms, 0403ms total)
T25B8 008:605 JLINK_SetBPEx(Addr = 0x08006BB8, Type = 0xFFFFFFF2)  returns 0x0000000A (0000ms, 0403ms total)
T25B8 008:605 JLINK_SetBPEx(Addr = 0x08006BA0, Type = 0xFFFFFFF2)  returns 0x0000000B (0000ms, 0403ms total)
T25B8 008:605 JLINK_SetBPEx(Addr = 0x08006B7A, Type = 0xFFFFFFF2)  returns 0x0000000C (0000ms, 0403ms total)
T25B8 008:605 JLINK_SetBPEx(Addr = 0x08006B72, Type = 0xFFFFFFF2)  returns 0x0000000D (0000ms, 0403ms total)
T25B8 008:605 JLINK_Go() -- CPU_WriteMem(4 bytes @ 0xE0001004) (0002ms, 0405ms total)
T25B8 008:707 JLINK_IsHalted()  returns TRUE (0002ms, 0407ms total)
T25B8 008:709 JLINK_Halt()  returns 0x00 (0000ms, 0405ms total)
T25B8 008:709 JLINK_IsHalted()  returns TRUE (0000ms, 0405ms total)
T25B8 008:710 JLINK_IsHalted()  returns TRUE (0000ms, 0405ms total)
T25B8 008:710 JLINK_IsHalted()  returns TRUE (0000ms, 0405ms total)
T25B8 008:710 JLINK_ReadReg(R15 (PC))  returns 0x08006B7A (0000ms, 0405ms total)
T25B8 008:710 JLINK_ReadReg(XPSR)  returns 0x61000000 (0000ms, 0405ms total)
T25B8 008:710 JLINK_ClrBPEx(BPHandle = 0x0000000A)  returns 0x00 (0000ms, 0405ms total)
T25B8 008:710 JLINK_ClrBPEx(BPHandle = 0x0000000B)  returns 0x00 (0000ms, 0405ms total)
T25B8 008:711 JLINK_ClrBPEx(BPHandle = 0x0000000C)  returns 0x00 (0000ms, 0406ms total)
T25B8 008:711 JLINK_ClrBPEx(BPHandle = 0x0000000D)  returns 0x00 (0000ms, 0406ms total)
T25B8 008:711 JLINK_ReadMemU32(0xE000ED30, 0x0001 Items, ...) -- CPU_ReadMem(4 bytes @ 0xE000ED30) - Data: 02 00 00 00  returns 0x01 (0001ms, 0407ms total)
T25B8 008:712 JLINK_ReadMemU32(0xE0001028, 0x0001 Items, ...) -- CPU_ReadMem(4 bytes @ 0xE0001028) - Data: 00 00 00 00  returns 0x01 (0000ms, 0407ms total)
T25B8 008:712 JLINK_ReadMemU32(0xE0001038, 0x0001 Items, ...) -- CPU_ReadMem(4 bytes @ 0xE0001038) - Data: 00 02 00 00  returns 0x01 (0001ms, 0408ms total)
T25B8 008:713 JLINK_ReadMemU32(0xE0001048, 0x0001 Items, ...) -- CPU_ReadMem(4 bytes @ 0xE0001048) - Data: 00 00 00 00  returns 0x01 (0001ms, 0409ms total)
T25B8 008:714 JLINK_ReadMemU32(0xE0001058, 0x0001 Items, ...) -- CPU_ReadMem(4 bytes @ 0xE0001058) - Data: 00 00 00 00  returns 0x01 (0001ms, 0410ms total)
T25B8 008:715 JLINK_ReadReg(R0)  returns 0x00000000 (0000ms, 0410ms total)
T25B8 008:715 JLINK_ReadReg(R1)  returns 0x00000000 (0000ms, 0410ms total)
T25B8 008:715 JLINK_ReadReg(R2)  returns 0x00000000 (0000ms, 0410ms total)
T25B8 008:715 JLINK_ReadReg(R3)  returns 0x00000000 (0000ms, 0410ms total)
T25B8 008:715 JLINK_ReadReg(R4)  returns 0x200001FC (0000ms, 0410ms total)
T25B8 008:715 JLINK_ReadReg(R5)  returns 0x20000040 (0000ms, 0410ms total)
T25B8 008:715 JLINK_ReadReg(R6)  returns 0x00000000 (0000ms, 0410ms total)
T25B8 008:715 JLINK_ReadReg(R7)  returns 0x00000000 (0000ms, 0410ms total)
T25B8 008:715 JLINK_ReadReg(R8)  returns 0x00000000 (0000ms, 0410ms total)
T25B8 008:715 JLINK_ReadReg(R9)  returns 0x00000000 (0000ms, 0410ms total)
T25B8 008:715 JLINK_ReadReg(R10)  returns 0x00000000 (0000ms, 0410ms total)
T25B8 008:715 JLINK_ReadReg(R11)  returns 0x00000000 (0000ms, 0410ms total)
T25B8 008:715 JLINK_ReadReg(R12)  returns 0x00000000 (0000ms, 0410ms total)
T25B8 008:715 JLINK_ReadReg(R13 (SP))  returns 0x20000C60 (0000ms, 0410ms total)
T25B8 008:715 JLINK_ReadReg(R14)  returns 0x08006B73 (0000ms, 0410ms total)
T25B8 008:715 JLINK_ReadReg(R15 (PC))  returns 0x08006B7A (0000ms, 0410ms total)
T25B8 008:715 JLINK_ReadReg(XPSR)  returns 0x61000000 (0000ms, 0410ms total)
T25B8 008:715 JLINK_ReadReg(MSP)  returns 0x20006138 (0000ms, 0410ms total)
T25B8 008:715 JLINK_ReadReg(PSP)  returns 0x20000C60 (0000ms, 0410ms total)
T25B8 008:715 JLINK_ReadReg(CFBP)  returns 0x06000000 (0000ms, 0410ms total)
T25B8 008:715 JLINK_ReadReg(FPSCR)  returns 0x00000000 (0003ms, 0413ms total)
T25B8 008:718 JLINK_ReadReg(FPS0)  returns 0x00000000 (0000ms, 0413ms total)
T25B8 008:718 JLINK_ReadReg(FPS1)  returns 0x00000000 (0000ms, 0413ms total)
T25B8 008:718 JLINK_ReadReg(FPS2)  returns 0x00000000 (0000ms, 0413ms total)
T25B8 008:718 JLINK_ReadReg(FPS3)  returns 0x00000000 (0001ms, 0414ms total)
T25B8 008:719 JLINK_ReadReg(FPS4)  returns 0x00000000 (0000ms, 0414ms total)
T25B8 008:719 JLINK_ReadReg(FPS5)  returns 0x00000000 (0000ms, 0414ms total)
T25B8 008:719 JLINK_ReadReg(FPS6)  returns 0x00000000 (0000ms, 0414ms total)
T25B8 008:719 JLINK_ReadReg(FPS7)  returns 0x00000000 (0000ms, 0414ms total)
T25B8 008:719 JLINK_ReadReg(FPS8)  returns 0x00000000 (0000ms, 0414ms total)
T25B8 008:719 JLINK_ReadReg(FPS9)  returns 0x00000000 (0000ms, 0414ms total)
T25B8 008:719 JLINK_ReadReg(FPS10)  returns 0x00000000 (0000ms, 0414ms total)
T25B8 008:719 JLINK_ReadReg(FPS11)  returns 0x00000000 (0000ms, 0414ms total)
T25B8 008:719 JLINK_ReadReg(FPS12)  returns 0x00000000 (0000ms, 0414ms total)
T25B8 008:719 JLINK_ReadReg(FPS13)  returns 0x00000000 (0000ms, 0414ms total)
T25B8 008:719 JLINK_ReadReg(FPS14)  returns 0x00000000 (0000ms, 0414ms total)
T25B8 008:719 JLINK_ReadReg(FPS15)  returns 0x00000000 (0000ms, 0414ms total)
T25B8 008:719 JLINK_ReadReg(FPS16)  returns 0x00000000 (0000ms, 0414ms total)
T25B8 008:719 JLINK_ReadReg(FPS17)  returns 0x41200000 (0000ms, 0414ms total)
T25B8 008:719 JLINK_ReadReg(FPS18)  returns 0x00000000 (0000ms, 0414ms total)
T25B8 008:719 JLINK_ReadReg(FPS19)  returns 0x00000000 (0000ms, 0414ms total)
T25B8 008:719 JLINK_ReadReg(FPS20)  returns 0x00000000 (0000ms, 0414ms total)
T25B8 008:719 JLINK_ReadReg(FPS21)  returns 0x00000000 (0000ms, 0414ms total)
T25B8 008:719 JLINK_ReadReg(FPS22)  returns 0x00000000 (0000ms, 0414ms total)
T25B8 008:719 JLINK_ReadReg(FPS23)  returns 0x00000000 (0000ms, 0414ms total)
T25B8 008:719 JLINK_ReadReg(FPS24)  returns 0x00000000 (0000ms, 0414ms total)
T25B8 008:719 JLINK_ReadReg(FPS25)  returns 0x00000000 (0000ms, 0414ms total)
T25B8 008:719 JLINK_ReadReg(FPS26)  returns 0x00000000 (0000ms, 0414ms total)
T25B8 008:719 JLINK_ReadReg(FPS27)  returns 0x00000000 (0000ms, 0414ms total)
T25B8 008:719 JLINK_ReadReg(FPS28)  returns 0x00000000 (0000ms, 0414ms total)
T25B8 008:719 JLINK_ReadReg(FPS29)  returns 0x00000000 (0000ms, 0414ms total)
T25B8 008:719 JLINK_ReadReg(FPS30)  returns 0x00000000 (0000ms, 0414ms total)
T25B8 008:719 JLINK_ReadReg(FPS31)  returns 0x00000000 (0001ms, 0415ms total)
T2B28 008:720 JLINK_ReadMemEx(0x20000C60, 0x0004 Bytes, ..., AccessWidth = 33554432)Mis-aligned memory read: Address: 0x20000C60, NumBytes: 4, Alignment: 2 (Halfword-aligned)
  ***** Mis-aligned memory read: Address: 0x20000C60, NumBytes: 4, Alignment: 2 (Halfword-aligned) -- CPU_ReadMem(64 bytes @ 0x20000C40) -- Updating C cache (64 bytes @ 0x20000C40) -- Read from C cache (4 bytes @ 0x20000C60) - Data: 00 00 00 00  returns 0x04 (0000ms, 0415ms total)
T2B28 008:720 JLINK_ReadMemEx(0x00000000, 0x0004 Bytes, ..., AccessWidth = 33554432) -- CPU_ReadMem(4 bytes @ 0x00000004)Mis-aligned memory read: Address: 0x00000000, NumBytes: 4, Alignment: 2 (Halfword-aligned)
  ***** Mis-aligned memory read: Address: 0x00000000, NumBytes: 4, Alignment: 2 (Halfword-aligned) -- CPU_ReadMem(64 bytes @ 0x08000000) -- Updating C cache (64 bytes @ 0x08000000) -- Read from C cache (4 bytes @ 0x08000000) - Data: 58 61 00 20  returns 0x04 (0002ms, 0417ms total)
T2B28 008:722 JLINK_ReadMemEx(0x200001FC, 0x0004 Bytes, ..., AccessWidth = 33554432)Mis-aligned memory read: Address: 0x200001FC, NumBytes: 4, Alignment: 2 (Halfword-aligned)
  ***** Mis-aligned memory read: Address: 0x200001FC, NumBytes: 4, Alignment: 2 (Halfword-aligned) -- CPU_ReadMem(64 bytes @ 0x200001C0) -- Updating C cache (64 bytes @ 0x200001C0) -- Read from C cache (4 bytes @ 0x200001FC) - Data: 00 00 00 00  returns 0x04 (0000ms, 0417ms total)
T2B28 008:722 JLINK_ReadMemEx(0x20000200, 0x0004 Bytes, ..., AccessWidth = 33554432)Mis-aligned memory read: Address: 0x20000200, NumBytes: 4, Alignment: 2 (Halfword-aligned)
  ***** Mis-aligned memory read: Address: 0x20000200, NumBytes: 4, Alignment: 2 (Halfword-aligned) -- CPU_ReadMem(64 bytes @ 0x20000200) -- Updating C cache (64 bytes @ 0x20000200) -- Read from C cache (4 bytes @ 0x20000200) - Data: 00 00 00 00  returns 0x04 (0001ms, 0418ms total)
T2B28 008:723 JLINK_ReadMemEx(0x20000204, 0x0004 Bytes, ..., AccessWidth = 33554432)Mis-aligned memory read: Address: 0x20000204, NumBytes: 4, Alignment: 2 (Halfword-aligned)
  ***** Mis-aligned memory read: Address: 0x20000204, NumBytes: 4, Alignment: 2 (Halfword-aligned) -- Read from C cache (4 bytes @ 0x20000204) - Data: 00 00 00 00  returns 0x04 (0000ms, 0418ms total)
T2B28 008:723 JLINK_ReadMemEx(0x20000208, 0x0004 Bytes, ..., AccessWidth = 33554432)Mis-aligned memory read: Address: 0x20000208, NumBytes: 4, Alignment: 2 (Halfword-aligned)
  ***** Mis-aligned memory read: Address: 0x20000208, NumBytes: 4, Alignment: 2 (Halfword-aligned) -- Read from C cache (4 bytes @ 0x20000208) - Data: 00 00 00 00  returns 0x04 (0000ms, 0418ms total)
T2B28 008:723 JLINK_ReadMemEx(0x2000020C, 0x0004 Bytes, ..., AccessWidth = 33554432)Mis-aligned memory read: Address: 0x2000020C, NumBytes: 4, Alignment: 2 (Halfword-aligned)
  ***** Mis-aligned memory read: Address: 0x2000020C, NumBytes: 4, Alignment: 2 (Halfword-aligned) -- Read from C cache (4 bytes @ 0x2000020C) - Data: 00 00 00 00  returns 0x04 (0000ms, 0418ms total)
T2B28 008:723 JLINK_ReadMemEx(0x20000050, 0x0004 Bytes, ..., AccessWidth = 33554432)Mis-aligned memory read: Address: 0x20000050, NumBytes: 4, Alignment: 2 (Halfword-aligned)
  ***** Mis-aligned memory read: Address: 0x20000050, NumBytes: 4, Alignment: 2 (Halfword-aligned) -- CPU_ReadMem(64 bytes @ 0x20000040) -- Updating C cache (64 bytes @ 0x20000040) -- Read from C cache (4 bytes @ 0x20000050) - Data: 00 00 00 00  returns 0x04 (0001ms, 0419ms total)
T2B28 008:724 JLINK_ReadMemEx(0x20000054, 0x0004 Bytes, ..., AccessWidth = 33554432)Mis-aligned memory read: Address: 0x20000054, NumBytes: 4, Alignment: 2 (Halfword-aligned)
  ***** Mis-aligned memory read: Address: 0x20000054, NumBytes: 4, Alignment: 2 (Halfword-aligned) -- Read from C cache (4 bytes @ 0x20000054) - Data: 00 00 00 00  returns 0x04 (0000ms, 0419ms total)
T2B28 008:726 JLINK_ReadMemEx(0x08006B7A, 0x0002 Bytes, ..., AccessWidth = 33554432)Mis-aligned memory read: Address: 0x08006B7A, NumBytes: 2, Alignment: 2 (Halfword-aligned)
  ***** Mis-aligned memory read: Address: 0x08006B7A, NumBytes: 2, Alignment: 2 (Halfword-aligned) -- CPU_ReadMem(64 bytes @ 0x08006B40) -- Updating C cache (64 bytes @ 0x08006B40) -- Read from C cache (2 bytes @ 0x08006B7A) - Data: B7 EE  returns 0x02 (0001ms, 0420ms total)
T2B28 008:727 JLINK_ReadMemEx(0x08006B7C, 0x003C Bytes, ..., AccessWidth = 33554432)Mis-aligned memory read: Address: 0x08006B7C, NumBytes: 60, Alignment: 2 (Halfword-aligned)
  ***** Mis-aligned memory read: Address: 0x08006B7C, NumBytes: 60, Alignment: 2 (Halfword-aligned) -- CPU_ReadMem(64 bytes @ 0x08006B80) -- Updating C cache (64 bytes @ 0x08006B80) -- Read from C cache (60 bytes @ 0x08006B7C) - Data: 00 8A 00 90 00 20 FE F7 41 FB 01 28 16 D0 02 28 ...  returns 0x3C (0001ms, 0421ms total)
T25B8 009:266 JLINK_ReadMemEx(0x08006B7A, 0x0002 Bytes, ..., AccessWidth = 33554432)Mis-aligned memory read: Address: 0x08006B7A, NumBytes: 2, Alignment: 2 (Halfword-aligned)
  ***** Mis-aligned memory read: Address: 0x08006B7A, NumBytes: 2, Alignment: 2 (Halfword-aligned) -- Read from C cache (2 bytes @ 0x08006B7A) - Data: B7 EE  returns 0x02 (0001ms, 0422ms total)
T25B8 009:267 JLINK_Step() -- Read from C cache (2 bytes @ 0x08006B7A) -- CPU_ReadMem(4 bytes @ 0xE0001004) -- Read from C cache (2 bytes @ 0x08006B7C) -- Not simulated -- CPU_WriteMem(4 bytes @ 0xE0002008) -- CPU_WriteMem(4 bytes @ 0xE000200C) -- CPU_WriteMem(4 bytes @ 0xE0002010) -- CPU_WriteMem(4 bytes @ 0xE0002014)  returns 0x00 (0004ms, 0426ms total)
T25B8 009:271 JLINK_ReadReg(R15 (PC))  returns 0x08006B7E (0000ms, 0426ms total)
T25B8 009:271 JLINK_ReadReg(XPSR)  returns 0x61000000 (0000ms, 0426ms total)
T25B8 009:271 JLINK_SetBPEx(Addr = 0x08006BB8, Type = 0xFFFFFFF2)  returns 0x0000000E (0000ms, 0426ms total)
T25B8 009:271 JLINK_SetBPEx(Addr = 0x08006BA0, Type = 0xFFFFFFF2)  returns 0x0000000F (0000ms, 0426ms total)
T25B8 009:271 JLINK_SetBPEx(Addr = 0x08006B7A, Type = 0xFFFFFFF2)  returns 0x00000010 (0000ms, 0426ms total)
T25B8 009:271 JLINK_SetBPEx(Addr = 0x08006B72, Type = 0xFFFFFFF2)  returns 0x00000011 (0000ms, 0426ms total)
T25B8 009:271 JLINK_Go() -- CPU_WriteMem(4 bytes @ 0xE0002008) -- CPU_WriteMem(4 bytes @ 0xE000200C) -- CPU_WriteMem(4 bytes @ 0xE0002010) -- CPU_WriteMem(4 bytes @ 0xE0002014) (0002ms, 0428ms total)
T25B8 009:374 JLINK_IsHalted()  returns TRUE (0002ms, 0430ms total)
T25B8 009:376 JLINK_Halt()  returns 0x00 (0000ms, 0428ms total)
T25B8 009:376 JLINK_IsHalted()  returns TRUE (0000ms, 0428ms total)
T25B8 009:376 JLINK_IsHalted()  returns TRUE (0000ms, 0428ms total)
T25B8 009:376 JLINK_IsHalted()  returns TRUE (0000ms, 0428ms total)
T25B8 009:376 JLINK_ReadReg(R15 (PC))  returns 0x08006BB8 (0000ms, 0428ms total)
T25B8 009:377 JLINK_ReadReg(XPSR)  returns 0x61000000 (0000ms, 0429ms total)
T25B8 009:377 JLINK_ClrBPEx(BPHandle = 0x0000000E)  returns 0x00 (0000ms, 0429ms total)
T25B8 009:377 JLINK_ClrBPEx(BPHandle = 0x0000000F)  returns 0x00 (0000ms, 0429ms total)
T25B8 009:377 JLINK_ClrBPEx(BPHandle = 0x00000010)  returns 0x00 (0000ms, 0429ms total)
T25B8 009:377 JLINK_ClrBPEx(BPHandle = 0x00000011)  returns 0x00 (0000ms, 0429ms total)
T25B8 009:377 JLINK_ReadMemU32(0xE000ED30, 0x0001 Items, ...) -- CPU_ReadMem(4 bytes @ 0xE000ED30) - Data: 02 00 00 00  returns 0x01 (0001ms, 0430ms total)
T25B8 009:378 JLINK_ReadMemU32(0xE0001028, 0x0001 Items, ...) -- CPU_ReadMem(4 bytes @ 0xE0001028) - Data: 00 00 00 00  returns 0x01 (0001ms, 0431ms total)
T25B8 009:379 JLINK_ReadMemU32(0xE0001038, 0x0001 Items, ...) -- CPU_ReadMem(4 bytes @ 0xE0001038) - Data: 00 02 00 00  returns 0x01 (0001ms, 0432ms total)
T25B8 009:380 JLINK_ReadMemU32(0xE0001048, 0x0001 Items, ...) -- CPU_ReadMem(4 bytes @ 0xE0001048) - Data: 00 00 00 00  returns 0x01 (0001ms, 0433ms total)
T25B8 009:381 JLINK_ReadMemU32(0xE0001058, 0x0001 Items, ...) -- CPU_ReadMem(4 bytes @ 0xE0001058) - Data: 00 00 00 00  returns 0x01 (0001ms, 0434ms total)
